TBCD8 964:425.512   SEGGER J-Link V7.55d (beta) Log File
TBCD8 964:425.595   DLL Compiled: Sep 28 2021 16:44:40
TBCD8 964:425.621   Logging started @ 2025-05-22 10:32
TBCD8 964:425.647 - 37345.949ms
TBCD8 964:425.678 JLINK_SetWarnOutHandler(...)
TBCD8 964:425.703 - 0.037ms
TBCD8 964:425.729 JLINK_OpenEx(...)
TBCD8 964:427.509   Firmware: J-Link ARM-OB STM32 compiled Aug 22 2012 19:52:04
TBCD8 964:428.013   Firmware: J-Link ARM-OB STM32 compiled Aug 22 2012 19:52:04
TBCD8 964:430.787   Hardware: V7.00
TBCD8 964:430.851   S/N: 20090928
TBCD8 964:430.895   OEM: SEGGER
TBCD8 964:430.939   Feature(s): RDI,FlashDL,FlashBP,JFlash,GDB
TBCD8 964:432.462   TELNET listener socket opened on port 19021
TBCD8 964:436.050   WEBSRV WEBSRV_Init(): Starting webserver thread(s)
TBCD8 964:436.305   WEBSRV Webserver running on local port 19080
TBCD8 964:539.602 - 113.909ms returns "O.K."
TBCD8 964:539.667 JLINK_GetEmuCaps()
TBCD8 964:539.694 - 0.039ms returns 0x88EA5833
TBCD8 964:540.194 JLINK_TIF_GetAvailable(...)
TBCD8 964:540.527 - 0.355ms
TBCD8 964:540.575 JLINK_SetErrorOutHandler(...)
TBCD8 964:540.606 - 0.045ms
TBCD8 964:540.645 JLINK_ExecCommand("ProjectFile = "E:\毕业设计\毕业设计1.5.1(gps功能可用，WiFi功能可用+云端信息下发 +压力传感器 +温湿度\USER\JLinkSettings.ini"", ...). 
TBCD8 964:542.118 - 1.490ms returns 0x00
TBCD8 964:553.125 JLINK_ExecCommand("Device = STM32F103C8", ...). 
TBCD8 964:559.314   Device "STM32F103C8" selected.
TBCD8 964:559.866 - 6.717ms returns 0x00
TBCD8 964:559.904 JLINK_ExecCommand("DisableConnectionTimeout", ...). 
TBCD8 964:559.933 - 0.013ms returns 0x01
TBCD8 964:559.967 JLINK_GetHardwareVersion()
TBCD8 964:559.992 - 0.037ms returns 70000
TBCD8 964:560.019 JLINK_GetDLLVersion()
TBCD8 964:560.043 - 0.039ms returns 75504
TBCD8 964:560.074 JLINK_GetOEMString(...)
TBCD8 964:560.100 JLINK_GetFirmwareString(...)
TBCD8 964:560.125 - 0.036ms
TBCD8 964:587.638 JLINK_GetDLLVersion()
TBCD8 964:587.693 - 0.066ms returns 75504
TBCD8 964:587.729 JLINK_GetCompileDateTime()
TBCD8 964:587.753 - 0.036ms
TBCD8 964:593.761 JLINK_GetFirmwareString(...)
TBCD8 964:593.836 - 0.091ms
TBCD8 964:600.259 JLINK_GetHardwareVersion()
TBCD8 964:600.309 - 0.062ms returns 70000
TBCD8 964:605.928 JLINK_GetSN()
TBCD8 964:605.974 - 0.058ms returns 20090928
TBCD8 964:610.890 JLINK_GetOEMString(...)
TBCD8 964:623.322 JLINK_TIF_Select(JLINKARM_TIF_SWD)
TBCD8 964:624.764 - 1.472ms returns 0x00
TBCD8 964:624.821 JLINK_HasError()
TBCD8 964:624.856 JLINK_SetSpeed(5000)
TBCD8 964:625.394 - 0.561ms
TBCD8 964:625.443 JLINK_GetId()
TBCD8 964:631.581   InitTarget() start
TBCD8 964:631.644    J-Link Script File: Executing InitTarget()
TBCD8 964:660.658   InitTarget() end
TBCD8 964:666.628   Found SW-DP with ID 0x1BA01477
TBCD8 964:673.519   Old FW that does not support reading DPIDR via DAP jobs
TBCD8 964:688.683   DPv0 detected
TBCD8 964:694.055   Scanning AP map to find all available APs
TBCD8 964:704.636   AP[1]: Stopped AP scan as end of AP map has been reached
TBCD8 964:709.962   AP[0]: AHB-AP (IDR: 0x14770011)
TBCD8 964:716.422   Iterating through AP map to find AHB-AP to use
TBCD8 964:729.950   AP[0]: Core found
TBCD8 964:735.192   AP[0]: AHB-AP ROM base: 0xE00FF000
TBCD8 964:746.715   CPUID register: 0x411FC231. Implementer code: 0x41 (ARM)
TBCD8 964:752.228   Found Cortex-M3 r1p1, Little endian.
TBCD8 964:854.076   -- Max. mem block: 0x00002C18
TBCD8 964:854.678   CPU_ReadMem(4 bytes @ 0xE000EDF0)
TBCD8 964:855.312   CPU_WriteMem(4 bytes @ 0xE000EDF0)
TBCD8 964:855.995   CPU_ReadMem(4 bytes @ 0xE0002000)
TBCD8 964:863.852   FPUnit: 6 code (BP) slots and 2 literal slots
TBCD8 964:863.915   CPU_ReadMem(4 bytes @ 0xE000EDFC)
TBCD8 964:864.555   CPU_WriteMem(4 bytes @ 0xE000EDFC)
TBCD8 964:865.245   CPU_ReadMem(4 bytes @ 0xE0001000)
TBCD8 964:865.884   CPU_WriteMem(4 bytes @ 0xE0001000)
TBCD8 964:866.523   CPU_ReadMem(4 bytes @ 0xE000ED88)
TBCD8 964:867.171   CPU_WriteMem(4 bytes @ 0xE000ED88)
TBCD8 964:867.860   CPU_ReadMem(4 bytes @ 0xE000ED88)
TBCD8 964:868.516   CPU_WriteMem(4 bytes @ 0xE000ED88)
TBCD8 964:875.694   CoreSight components:
TBCD8 964:881.746   ROMTbl[0] @ E00FF000
TBCD8 964:881.829   CPU_ReadMem(64 bytes @ 0xE00FF000)
TBCD8 964:883.159   CPU_ReadMem(32 bytes @ 0xE000EFE0)
TBCD8 964:891.094   [0][0]: E000E000 CID B105E00D PID 001BB000 SCS
TBCD8 964:891.169   CPU_ReadMem(32 bytes @ 0xE0001FE0)
TBCD8 964:897.434   [0][1]: E0001000 CID B105E00D PID 001BB002 DWT
TBCD8 964:897.518   CPU_ReadMem(32 bytes @ 0xE0002FE0)
TBCD8 964:905.226   [0][2]: E0002000 CID B105E00D PID 000BB003 FPB
TBCD8 964:905.303   CPU_ReadMem(32 bytes @ 0xE0000FE0)
TBCD8 964:911.759   [0][3]: E0000000 CID B105E00D PID 001BB001 ITM
TBCD8 964:911.816   CPU_ReadMem(32 bytes @ 0xE0040FE0)
TBCD8 964:919.992   [0][4]: E0040000 CID B105900D PID 001BB923 TPIU-Lite
TBCD8 964:920.913 - 295.495ms returns 0x1BA01477
TBCD8 964:920.961 JLINK_GetDLLVersion()
TBCD8 964:920.985 - 0.036ms returns 75504
TBCD8 964:921.065 JLINK_CORE_GetFound()
TBCD8 964:921.095 - 0.041ms returns 0x30000FF
TBCD8 964:921.124 JLINK_GetDebugInfo(0x100 = JLINKARM_ROM_TABLE_ADDR_INDEX)
TBCD8 964:921.150   Value=0xE00FF000
TBCD8 964:921.185 - 0.073ms returns 0
TBCD8 964:929.501 JLINK_GetDebugInfo(0x100 = JLINKARM_ROM_TABLE_ADDR_INDEX)
TBCD8 964:929.562   Value=0xE00FF000
TBCD8 964:929.599 - 0.109ms returns 0
TBCD8 964:929.626 JLINK_GetDebugInfo(0x101 = JLINKARM_DEBUG_INFO_ETM_ADDR_INDEX)
TBCD8 964:929.654   Value=0x00000000
TBCD8 964:929.708 - 0.097ms returns 0
TBCD8 964:929.761 JLINK_ReadMemEx(0xE0041FF0, 0x10 Bytes, Flags = 0x02000004)
TBCD8 964:929.825   CPU_ReadMem(16 bytes @ 0xE0041FF0)
TBCD8 964:930.868   Data:  00 00 00 00 00 00 00 00 00 00 00 00 00 00 00 00
TBCD8 964:930.930 - 1.182ms returns 16 (0x10)
TBCD8 964:930.962 JLINK_GetDebugInfo(0x102 = JLINKARM_DEBUG_INFO_MTB_ADDR_INDEX)
TBCD8 964:930.989   Value=0x00000000
TBCD8 964:931.028 - 0.079ms returns 0
TBCD8 964:931.059 JLINK_GetDebugInfo(0x103 = JLINKARM_DEBUG_INFO_TPIU_ADDR_INDEX)
TBCD8 964:931.086   Value=0xE0040000
TBCD8 964:931.124 - 0.077ms returns 0
TBCD8 964:931.151 JLINK_GetDebugInfo(0x104 = JLINKARM_DEBUG_INFO_ITM_ADDR_INDEX)
TBCD8 964:931.178   Value=0xE0000000
TBCD8 964:931.218 - 0.078ms returns 0
TBCD8 964:931.243 JLINK_GetDebugInfo(0x105 = JLINKARM_DEBUG_INFO_DWT_ADDR_INDEX)
TBCD8 964:931.268   Value=0xE0001000
TBCD8 964:931.308 - 0.082ms returns 0
TBCD8 964:931.347 JLINK_GetDebugInfo(0x106 = JLINKARM_DEBUG_INFO_FPB_ADDR_INDEX)
TBCD8 964:931.374   Value=0xE0002000
TBCD8 964:931.413 - 0.085ms returns 0
TBCD8 964:931.449 JLINK_GetDebugInfo(0x107 = JLINKARM_DEBUG_INFO_NVIC_ADDR_INDEX)
TBCD8 964:931.474   Value=0xE000E000
TBCD8 964:931.510 - 0.073ms returns 0
TBCD8 964:931.536 JLINK_GetDebugInfo(0x10C = JLINKARM_DEBUG_INFO_DBG_ADDR_INDEX)
TBCD8 964:931.561   Value=0xE000EDF0
TBCD8 964:931.598 - 0.073ms returns 0
TBCD8 964:931.624 JLINK_GetDebugInfo(0x01 = Unknown)
TBCD8 964:931.649   Value=0x00000000
TBCD8 964:931.684 - 0.073ms returns 0
TBCD8 964:931.726 JLINK_ReadMemU32(0xE000ED00, 0x1 Items)
TBCD8 964:931.767   CPU_ReadMem(4 bytes @ 0xE000ED00)
TBCD8 964:932.459   Data:  31 C2 1F 41
TBCD8 964:932.520   Debug reg: CPUID
TBCD8 964:932.562 - 0.852ms returns 1 (0x1)
TBCD8 964:932.598 JLINK_GetDebugInfo(0x10F = JLINKARM_DEBUG_INFO_HAS_CORTEX_M_SECURITY_EXT_INDEX)
TBCD8 964:932.629   Value=0x00000000
TBCD8 964:932.671 - 0.087ms returns 0
TBCD8 964:932.703 JLINK_HasError()
TBCD8 964:932.745 JLINK_SetResetType(JLINKARM_CM3_RESET_TYPE_NORMAL)
TBCD8 964:932.777 - 0.046ms returns JLINKARM_CM3_RESET_TYPE_NORMAL
TBCD8 964:932.810 JLINK_Reset()
TBCD8 964:932.852   CPU is running
TBCD8 964:932.899   CPU_WriteMem(4 bytes @ 0xE000EDF0)
TBCD8 964:933.645   CPU is running
TBCD8 964:933.690   CPU_WriteMem(4 bytes @ 0xE000EDFC)
TBCD8 964:940.331   Reset: Halt core after reset via DEMCR.VC_CORERESET.
TBCD8 964:952.323   Reset: Reset device via AIRCR.SYSRESETREQ.
TBCD8 964:952.395   CPU is running
TBCD8 964:952.447   CPU_WriteMem(4 bytes @ 0xE000ED0C)
TBCD8 965:005.250   CPU_ReadMem(4 bytes @ 0xE000EDF0)
TBCD8 965:005.868   CPU_ReadMem(4 bytes @ 0xE000EDF0)
TBCD8 965:006.503   CPU is running
TBCD8 965:006.571   CPU_WriteMem(4 bytes @ 0xE000EDF0)
TBCD8 965:007.299   CPU is running
TBCD8 965:007.354   CPU_WriteMem(4 bytes @ 0xE000EDFC)
TBCD8 965:013.463   CPU_ReadMem(4 bytes @ 0xE000EDF0)
TBCD8 965:017.604   CPU_WriteMem(4 bytes @ 0xE0002000)
TBCD8 965:018.314   CPU_ReadMem(4 bytes @ 0xE000EDFC)
TBCD8 965:019.059   CPU_ReadMem(4 bytes @ 0xE0001000)
TBCD8 965:019.746 - 86.953ms
TBCD8 965:019.821 JLINK_Halt()
TBCD8 965:019.851 - 0.042ms returns 0x00
TBCD8 965:019.877 JLINK_ReadMemU32(0xE000EDF0, 0x1 Items)
TBCD8 965:019.908   CPU_ReadMem(4 bytes @ 0xE000EDF0)
TBCD8 965:020.557   Data:  03 00 03 00
TBCD8 965:020.599   Debug reg: DHCSR
TBCD8 965:020.634 - 0.768ms returns 1 (0x1)
TBCD8 965:020.664 JLINK_WriteU32_64(0xE000EDF0, 0xA05F0003)
TBCD8 965:020.688   Debug reg: DHCSR
TBCD8 965:020.907   CPU_WriteMem(4 bytes @ 0xE000EDF0)
TBCD8 965:021.547 - 0.908ms returns 0 (0x00000000)
TBCD8 965:021.604 JLINK_WriteU32_64(0xE000EDFC, 0x01000000)
TBCD8 965:021.758   Debug reg: DEMCR
TBCD8 965:021.812   CPU_WriteMem(4 bytes @ 0xE000EDFC)
TBCD8 965:022.517 - 0.939ms returns 0 (0x00000000)
TBCD8 965:051.501 JLINK_GetHWStatus(...)
TBCD8 965:051.928 - 0.449ms returns 0
TBCD8 965:074.166 JLINK_GetNumBPUnits(Type = 0xFFFFFF00)
TBCD8 965:074.223 - 0.073ms returns 0x06
TBCD8 965:074.257 JLINK_GetNumBPUnits(Type = 0xF0)
TBCD8 965:074.288 - 0.045ms returns 0x2000
TBCD8 965:074.321 JLINK_GetNumWPUnits()
TBCD8 965:074.352 - 0.046ms returns 4
TBCD8 965:091.732 JLINK_GetSpeed()
TBCD8 965:091.792 - 0.073ms returns 4000
TBCD8 965:107.390 JLINK_ReadMemU32(0xE000E004, 0x1 Items)
TBCD8 965:107.473   CPU_ReadMem(4 bytes @ 0xE000E004)
TBCD8 965:108.155   Data:  01 00 00 00
TBCD8 965:108.216 - 0.843ms returns 1 (0x1)
TBCD8 965:108.257 JLINK_ReadMemU32(0xE000E004, 0x1 Items)
TBCD8 965:108.305   CPU_ReadMem(4 bytes @ 0xE000E004)
TBCD8 965:108.950   Data:  01 00 00 00
TBCD8 965:108.998 - 0.752ms returns 1 (0x1)
TBCD8 965:109.039 JLINK_WriteMemEx(0xE0001000, 0x0000001C Bytes, Flags = 0x02000004)
TBCD8 965:109.067   Data:  01 00 00 00 00 00 00 00 00 00 00 00 00 00 00 00 ...
TBCD8 965:109.116   CPU_WriteMem(28 bytes @ 0xE0001000)
TBCD8 965:110.073 - 1.052ms returns 0x1C
TBCD8 965:110.112 JLINK_Halt()
TBCD8 965:110.136 - 0.036ms returns 0x00
TBCD8 965:110.167 JLINK_IsHalted()
TBCD8 965:110.192 - 0.036ms returns TRUE
TBCD8 965:115.277 JLINK_WriteMem(0x20000000, 0x164 Bytes, ...)
TBCD8 965:115.317   Data:  00 BE 0A E0 0D 78 2D 06 68 40 08 24 40 00 00 D3 ...
TBCD8 965:115.556   CPU_WriteMem(356 bytes @ 0x20000000)
TBCD8 965:120.439 - 5.187ms returns 0x164
TBCD8 965:120.519 JLINK_HasError()
TBCD8 965:120.562 JLINK_WriteReg(R0, 0x08000000)
TBCD8 965:120.595 - 0.048ms returns 0
TBCD8 965:120.627 JLINK_WriteReg(R1, 0x00B71B00)
TBCD8 965:120.657 - 0.044ms returns 0
TBCD8 965:120.687 JLINK_WriteReg(R2, 0x00000001)
TBCD8 965:120.719 - 0.046ms returns 0
TBCD8 965:120.753 JLINK_WriteReg(R3, 0x00000000)
TBCD8 965:120.782 - 0.044ms returns 0
TBCD8 965:120.815 JLINK_WriteReg(R4, 0x00000000)
TBCD8 965:120.845 - 0.044ms returns 0
TBCD8 965:120.878 JLINK_WriteReg(R5, 0x00000000)
TBCD8 965:120.907 - 0.044ms returns 0
TBCD8 965:120.940 JLINK_WriteReg(R6, 0x00000000)
TBCD8 965:120.970 - 0.044ms returns 0
TBCD8 965:121.002 JLINK_WriteReg(R7, 0x00000000)
TBCD8 965:121.032 - 0.044ms returns 0
TBCD8 965:121.064 JLINK_WriteReg(R8, 0x00000000)
TBCD8 965:121.094 - 0.044ms returns 0
TBCD8 965:121.127 JLINK_WriteReg(R9, 0x20000160)
TBCD8 965:121.156 - 0.044ms returns 0
TBCD8 965:121.189 JLINK_WriteReg(R10, 0x00000000)
TBCD8 965:121.218 - 0.044ms returns 0
TBCD8 965:121.251 JLINK_WriteReg(R11, 0x00000000)
TBCD8 965:121.281 - 0.044ms returns 0
TBCD8 965:121.313 JLINK_WriteReg(R12, 0x00000000)
TBCD8 965:121.343 - 0.044ms returns 0
TBCD8 965:121.375 JLINK_WriteReg(R13 (SP), 0x20000800)
TBCD8 965:121.406 - 0.045ms returns 0
TBCD8 965:121.438 JLINK_WriteReg(R14, 0x20000001)
TBCD8 965:121.468 - 0.044ms returns 0
TBCD8 965:121.500 JLINK_WriteReg(R15 (PC), 0x20000038)
TBCD8 965:121.534 - 0.049ms returns 0
TBCD8 965:121.568 JLINK_WriteReg(XPSR, 0x01000000)
TBCD8 965:121.598 - 0.044ms returns 0
TBCD8 965:121.630 JLINK_WriteReg(MSP, 0x20000800)
TBCD8 965:121.660 - 0.044ms returns 0
TBCD8 965:121.693 JLINK_WriteReg(PSP, 0x20000800)
TBCD8 965:121.724 - 0.045ms returns 0
TBCD8 965:121.756 JLINK_WriteReg(CFBP, 0x00000000)
TBCD8 965:121.785 - 0.040ms returns 0
TBCD8 965:121.848 JLINK_SetBPEx(Addr = 0x20000000, Type = 0xFFFFFFF2)
TBCD8 965:121.896   CPU_ReadMem(2 bytes @ 0x20000000)
TBCD8 965:122.536 - 0.706ms returns 0x00000001
TBCD8 965:122.573 JLINK_Go()
TBCD8 965:122.601   CPU_WriteMem(2 bytes @ 0x20000000)
TBCD8 965:123.290   CPU_ReadMem(4 bytes @ 0xE0001000)
TBCD8 965:123.888   CPU_WriteMem(4 bytes @ 0xE0002008)
TBCD8 965:123.942   CPU_WriteMem(4 bytes @ 0xE000200C)
TBCD8 965:123.986   CPU_WriteMem(4 bytes @ 0xE0002010)
TBCD8 965:124.030   CPU_WriteMem(4 bytes @ 0xE0002014)
TBCD8 965:124.074   CPU_WriteMem(4 bytes @ 0xE0002018)
TBCD8 965:124.118   CPU_WriteMem(4 bytes @ 0xE000201C)
TBCD8 965:126.629   CPU_WriteMem(4 bytes @ 0xE0001004)
TBCD8 965:130.634 - 8.092ms
TBCD8 965:130.687 JLINK_IsHalted()
TBCD8 965:134.139   CPU_ReadMem(2 bytes @ 0x20000000)
TBCD8 965:134.859 - 4.196ms returns TRUE
TBCD8 965:134.914 JLINK_ReadReg(R15 (PC))
TBCD8 965:134.948 - 0.048ms returns 0x20000000
TBCD8 965:134.982 JLINK_ClrBPEx(BPHandle = 0x00000001)
TBCD8 965:135.012 - 0.045ms returns 0x00
TBCD8 965:135.045 JLINK_ReadReg(R0)
TBCD8 965:135.074 - 0.044ms returns 0x00000000
TBCD8 965:135.499 JLINK_HasError()
TBCD8 965:135.538 JLINK_WriteReg(R0, 0x08000000)
TBCD8 965:135.572 - 0.049ms returns 0
TBCD8 965:135.604 JLINK_WriteReg(R1, 0x00B71B00)
TBCD8 965:135.634 - 0.044ms returns 0
TBCD8 965:135.665 JLINK_WriteReg(R2, 0x00000001)
TBCD8 965:135.694 - 0.046ms returns 0
TBCD8 965:135.728 JLINK_WriteReg(R3, 0x00000000)
TBCD8 965:135.757 - 0.044ms returns 0
TBCD8 965:135.788 JLINK_WriteReg(R4, 0x00000000)
TBCD8 965:135.816 - 0.040ms returns 0
TBCD8 965:135.841 JLINK_WriteReg(R5, 0x00000000)
TBCD8 965:135.865 - 0.036ms returns 0
TBCD8 965:135.891 JLINK_WriteReg(R6, 0x00000000)
TBCD8 965:135.914 - 0.035ms returns 0
TBCD8 965:135.939 JLINK_WriteReg(R7, 0x00000000)
TBCD8 965:135.963 - 0.035ms returns 0
TBCD8 965:135.988 JLINK_WriteReg(R8, 0x00000000)
TBCD8 965:136.012 - 0.036ms returns 0
TBCD8 965:136.037 JLINK_WriteReg(R9, 0x20000160)
TBCD8 965:136.061 - 0.035ms returns 0
TBCD8 965:136.086 JLINK_WriteReg(R10, 0x00000000)
TBCD8 965:136.110 - 0.035ms returns 0
TBCD8 965:136.135 JLINK_WriteReg(R11, 0x00000000)
TBCD8 965:136.158 - 0.035ms returns 0
TBCD8 965:136.183 JLINK_WriteReg(R12, 0x00000000)
TBCD8 965:136.207 - 0.035ms returns 0
TBCD8 965:136.232 JLINK_WriteReg(R13 (SP), 0x20000800)
TBCD8 965:136.256 - 0.036ms returns 0
TBCD8 965:136.281 JLINK_WriteReg(R14, 0x20000001)
TBCD8 965:136.305 - 0.036ms returns 0
TBCD8 965:136.330 JLINK_WriteReg(R15 (PC), 0x2000007C)
TBCD8 965:136.354 - 0.035ms returns 0
TBCD8 965:136.379 JLINK_WriteReg(XPSR, 0x01000000)
TBCD8 965:136.403 - 0.035ms returns 0
TBCD8 965:136.428 JLINK_WriteReg(MSP, 0x20000800)
TBCD8 965:136.452 - 0.035ms returns 0
TBCD8 965:136.477 JLINK_WriteReg(PSP, 0x20000800)
TBCD8 965:136.500 - 0.035ms returns 0
TBCD8 965:136.525 JLINK_WriteReg(CFBP, 0x00000000)
TBCD8 965:136.549 - 0.035ms returns 0
TBCD8 965:136.574 JLINK_SetBPEx(Addr = 0x20000000, Type = 0xFFFFFFF2)
TBCD8 965:136.599 - 0.036ms returns 0x00000002
TBCD8 965:136.624 JLINK_Go()
TBCD8 965:136.655   CPU_ReadMem(4 bytes @ 0xE0001000)
TBCD8 965:140.661 - 4.067ms
TBCD8 965:140.719 JLINK_IsHalted()
TBCD8 965:141.375 - 0.687ms returns FALSE
TBCD8 965:141.432 JLINK_HasError()
TBCD8 965:170.696 JLINK_IsHalted()
TBCD8 965:174.192   CPU_ReadMem(2 bytes @ 0x20000000)
TBCD8 965:174.830 - 4.155ms returns TRUE
TBCD8 965:174.872 JLINK_ReadReg(R15 (PC))
TBCD8 965:174.900 - 0.040ms returns 0x20000000
TBCD8 965:174.927 JLINK_ClrBPEx(BPHandle = 0x00000002)
TBCD8 965:174.953 - 0.037ms returns 0x00
TBCD8 965:174.979 JLINK_ReadReg(R0)
TBCD8 965:175.066 - 0.099ms returns 0x00000000
TBCD8 965:235.592 JLINK_HasError()
TBCD8 965:235.635 JLINK_WriteReg(R0, 0x00000001)
TBCD8 965:235.663 - 0.040ms returns 0
TBCD8 965:235.689 JLINK_WriteReg(R1, 0x00B71B00)
TBCD8 965:235.713 - 0.036ms returns 0
TBCD8 965:235.739 JLINK_WriteReg(R2, 0x00000001)
TBCD8 965:235.762 - 0.035ms returns 0
TBCD8 965:235.787 JLINK_WriteReg(R3, 0x00000000)
TBCD8 965:235.811 - 0.035ms returns 0
TBCD8 965:235.836 JLINK_WriteReg(R4, 0x00000000)
TBCD8 965:235.860 - 0.035ms returns 0
TBCD8 965:235.885 JLINK_WriteReg(R5, 0x00000000)
TBCD8 965:235.909 - 0.036ms returns 0
TBCD8 965:235.934 JLINK_WriteReg(R6, 0x00000000)
TBCD8 965:235.961 - 0.038ms returns 0
TBCD8 965:235.986 JLINK_WriteReg(R7, 0x00000000)
TBCD8 965:236.010 - 0.035ms returns 0
TBCD8 965:236.035 JLINK_WriteReg(R8, 0x00000000)
TBCD8 965:236.059 - 0.035ms returns 0
TBCD8 965:236.084 JLINK_WriteReg(R9, 0x20000160)
TBCD8 965:236.107 - 0.035ms returns 0
TBCD8 965:236.133 JLINK_WriteReg(R10, 0x00000000)
TBCD8 965:236.156 - 0.035ms returns 0
TBCD8 965:236.182 JLINK_WriteReg(R11, 0x00000000)
TBCD8 965:236.205 - 0.035ms returns 0
TBCD8 965:236.230 JLINK_WriteReg(R12, 0x00000000)
TBCD8 965:236.254 - 0.035ms returns 0
TBCD8 965:236.279 JLINK_WriteReg(R13 (SP), 0x20000800)
TBCD8 965:236.304 - 0.036ms returns 0
TBCD8 965:236.330 JLINK_WriteReg(R14, 0x20000001)
TBCD8 965:236.354 - 0.035ms returns 0
TBCD8 965:236.379 JLINK_WriteReg(R15 (PC), 0x2000006A)
TBCD8 965:236.403 - 0.036ms returns 0
TBCD8 965:236.428 JLINK_WriteReg(XPSR, 0x01000000)
TBCD8 965:236.452 - 0.036ms returns 0
TBCD8 965:236.477 JLINK_WriteReg(MSP, 0x20000800)
TBCD8 965:236.501 - 0.036ms returns 0
TBCD8 965:236.527 JLINK_WriteReg(PSP, 0x20000800)
TBCD8 965:236.551 - 0.035ms returns 0
TBCD8 965:236.576 JLINK_WriteReg(CFBP, 0x00000000)
TBCD8 965:236.607 - 0.046ms returns 0
TBCD8 965:236.639 JLINK_SetBPEx(Addr = 0x20000000, Type = 0xFFFFFFF2)
TBCD8 965:236.671 - 0.048ms returns 0x00000003
TBCD8 965:236.707 JLINK_Go()
TBCD8 965:236.764   CPU_ReadMem(4 bytes @ 0xE0001000)
TBCD8 965:240.822 - 4.145ms
TBCD8 965:240.875 JLINK_IsHalted()
TBCD8 965:244.364   CPU_ReadMem(2 bytes @ 0x20000000)
TBCD8 965:245.052 - 4.209ms returns TRUE
TBCD8 965:245.112 JLINK_ReadReg(R15 (PC))
TBCD8 965:245.153 - 0.060ms returns 0x20000000
TBCD8 965:245.194 JLINK_ClrBPEx(BPHandle = 0x00000003)
TBCD8 965:245.232 - 0.056ms returns 0x00
TBCD8 965:245.272 JLINK_ReadReg(R0)
TBCD8 965:245.310 - 0.055ms returns 0x00000000
TBCD8 965:246.258 JLINK_WriteMem(0x20000000, 0x1B8 Bytes, ...)
TBCD8 965:246.287   Data:  00 BE 0A E0 0D 78 2D 06 68 40 08 24 40 00 00 D3 ...
TBCD8 965:246.329   CPU_WriteMem(440 bytes @ 0x20000000)
TBCD8 965:252.081 - 5.856ms returns 0x1B8
TBCD8 965:252.187 JLINK_HasError()
TBCD8 965:252.231 JLINK_WriteReg(R0, 0x1FFFF800)
TBCD8 965:252.273 - 0.060ms returns 0
TBCD8 965:252.313 JLINK_WriteReg(R1, 0x00B71B00)
TBCD8 965:252.350 - 0.056ms returns 0
TBCD8 965:252.389 JLINK_WriteReg(R2, 0x00000001)
TBCD8 965:252.426 - 0.055ms returns 0
TBCD8 965:252.466 JLINK_WriteReg(R3, 0x00000000)
TBCD8 965:252.503 - 0.055ms returns 0
TBCD8 965:252.542 JLINK_WriteReg(R4, 0x00000000)
TBCD8 965:252.579 - 0.055ms returns 0
TBCD8 965:252.618 JLINK_WriteReg(R5, 0x00000000)
TBCD8 965:252.655 - 0.055ms returns 0
TBCD8 965:252.694 JLINK_WriteReg(R6, 0x00000000)
TBCD8 965:252.731 - 0.055ms returns 0
TBCD8 965:252.771 JLINK_WriteReg(R7, 0x00000000)
TBCD8 965:252.808 - 0.055ms returns 0
TBCD8 965:252.847 JLINK_WriteReg(R8, 0x00000000)
TBCD8 965:252.884 - 0.055ms returns 0
TBCD8 965:252.923 JLINK_WriteReg(R9, 0x200001B4)
TBCD8 965:252.962 - 0.058ms returns 0
TBCD8 965:253.002 JLINK_WriteReg(R10, 0x00000000)
TBCD8 965:253.039 - 0.055ms returns 0
TBCD8 965:253.078 JLINK_WriteReg(R11, 0x00000000)
TBCD8 965:253.115 - 0.055ms returns 0
TBCD8 965:253.147 JLINK_WriteReg(R12, 0x00000000)
TBCD8 965:253.171 - 0.035ms returns 0
TBCD8 965:253.196 JLINK_WriteReg(R13 (SP), 0x20000800)
TBCD8 965:253.220 - 0.035ms returns 0
TBCD8 965:253.245 JLINK_WriteReg(R14, 0x20000001)
TBCD8 965:253.275 - 0.041ms returns 0
TBCD8 965:253.300 JLINK_WriteReg(R15 (PC), 0x20000020)
TBCD8 965:253.324 - 0.035ms returns 0
TBCD8 965:253.349 JLINK_WriteReg(XPSR, 0x01000000)
TBCD8 965:253.372 - 0.035ms returns 0
TBCD8 965:253.397 JLINK_WriteReg(MSP, 0x20000800)
TBCD8 965:253.421 - 0.035ms returns 0
TBCD8 965:253.446 JLINK_WriteReg(PSP, 0x20000800)
TBCD8 965:253.469 - 0.035ms returns 0
TBCD8 965:253.494 JLINK_WriteReg(CFBP, 0x00000000)
TBCD8 965:253.517 - 0.035ms returns 0
TBCD8 965:253.542 JLINK_SetBPEx(Addr = 0x20000000, Type = 0xFFFFFFF2)
TBCD8 965:253.571   CPU_ReadMem(2 bytes @ 0x20000000)
TBCD8 965:254.251 - 0.740ms returns 0x00000004
TBCD8 965:254.307 JLINK_Go()
TBCD8 965:254.351   CPU_WriteMem(2 bytes @ 0x20000000)
TBCD8 965:255.098   CPU_ReadMem(4 bytes @ 0xE0001000)
TBCD8 965:259.067 - 4.790ms
TBCD8 965:259.123 JLINK_IsHalted()
TBCD8 965:262.608   CPU_ReadMem(2 bytes @ 0x20000000)
TBCD8 965:263.294 - 4.190ms returns TRUE
TBCD8 965:263.330 JLINK_ReadReg(R15 (PC))
TBCD8 965:263.356 - 0.037ms returns 0x20000000
TBCD8 965:263.382 JLINK_ClrBPEx(BPHandle = 0x00000004)
TBCD8 965:263.406 - 0.035ms returns 0x00
TBCD8 965:263.431 JLINK_ReadReg(R0)
TBCD8 965:263.454 - 0.035ms returns 0x00000000
TBCD8 965:263.865 JLINK_HasError()
TBCD8 965:263.897 JLINK_WriteReg(R0, 0x1FFFF800)
TBCD8 965:263.922 - 0.036ms returns 0
TBCD8 965:263.951 JLINK_WriteReg(R1, 0x00B71B00)
TBCD8 965:263.977 - 0.037ms returns 0
TBCD8 965:264.002 JLINK_WriteReg(R2, 0x00000001)
TBCD8 965:264.026 - 0.035ms returns 0
TBCD8 965:264.051 JLINK_WriteReg(R3, 0x00000000)
TBCD8 965:264.074 - 0.035ms returns 0
TBCD8 965:264.099 JLINK_WriteReg(R4, 0x00000000)
TBCD8 965:264.123 - 0.035ms returns 0
TBCD8 965:264.148 JLINK_WriteReg(R5, 0x00000000)
TBCD8 965:264.171 - 0.035ms returns 0
TBCD8 965:264.196 JLINK_WriteReg(R6, 0x00000000)
TBCD8 965:264.219 - 0.035ms returns 0
TBCD8 965:264.244 JLINK_WriteReg(R7, 0x00000000)
TBCD8 965:264.268 - 0.035ms returns 0
TBCD8 965:264.292 JLINK_WriteReg(R8, 0x00000000)
TBCD8 965:264.316 - 0.035ms returns 0
TBCD8 965:264.341 JLINK_WriteReg(R9, 0x200001B4)
TBCD8 965:264.365 - 0.035ms returns 0
TBCD8 965:264.390 JLINK_WriteReg(R10, 0x00000000)
TBCD8 965:264.413 - 0.035ms returns 0
TBCD8 965:264.438 JLINK_WriteReg(R11, 0x00000000)
TBCD8 965:264.461 - 0.035ms returns 0
TBCD8 965:264.486 JLINK_WriteReg(R12, 0x00000000)
TBCD8 965:264.509 - 0.035ms returns 0
TBCD8 965:264.534 JLINK_WriteReg(R13 (SP), 0x20000800)
TBCD8 965:264.558 - 0.035ms returns 0
TBCD8 965:264.583 JLINK_WriteReg(R14, 0x20000001)
TBCD8 965:264.606 - 0.035ms returns 0
TBCD8 965:264.631 JLINK_WriteReg(R15 (PC), 0x20000076)
TBCD8 965:264.655 - 0.035ms returns 0
TBCD8 965:264.680 JLINK_WriteReg(XPSR, 0x01000000)
TBCD8 965:264.703 - 0.035ms returns 0
TBCD8 965:264.728 JLINK_WriteReg(MSP, 0x20000800)
TBCD8 965:264.751 - 0.035ms returns 0
TBCD8 965:264.776 JLINK_WriteReg(PSP, 0x20000800)
TBCD8 965:264.799 - 0.035ms returns 0
TBCD8 965:264.824 JLINK_WriteReg(CFBP, 0x00000000)
TBCD8 965:264.848 - 0.035ms returns 0
TBCD8 965:264.873 JLINK_SetBPEx(Addr = 0x20000000, Type = 0xFFFFFFF2)
TBCD8 965:264.897 - 0.036ms returns 0x00000005
TBCD8 965:264.922 JLINK_Go()
TBCD8 965:264.954   CPU_ReadMem(4 bytes @ 0xE0001000)
TBCD8 965:268.906 - 4.018ms
TBCD8 965:268.969 JLINK_IsHalted()
TBCD8 965:269.587 - 0.635ms returns FALSE
TBCD8 965:269.621 JLINK_HasError()
TBCD8 965:275.387 JLINK_IsHalted()
TBCD8 965:276.061 - 0.699ms returns FALSE
TBCD8 965:276.107 JLINK_HasError()
TBCD8 965:279.391 JLINK_IsHalted()
TBCD8 965:280.025 - 0.656ms returns FALSE
TBCD8 965:280.067 JLINK_HasError()
TBCD8 965:281.383 JLINK_IsHalted()
TBCD8 965:282.016 - 0.651ms returns FALSE
TBCD8 965:282.050 JLINK_HasError()
TBCD8 965:284.088 JLINK_IsHalted()
TBCD8 965:284.742 - 0.676ms returns FALSE
TBCD8 965:284.784 JLINK_HasError()
TBCD8 965:290.118 JLINK_IsHalted()
TBCD8 965:290.834 - 0.739ms returns FALSE
TBCD8 965:290.876 JLINK_HasError()
TBCD8 965:294.091 JLINK_IsHalted()
TBCD8 965:297.627   CPU_ReadMem(2 bytes @ 0x20000000)
TBCD8 965:298.313 - 4.247ms returns TRUE
TBCD8 965:298.360 JLINK_ReadReg(R15 (PC))
TBCD8 965:298.393 - 0.048ms returns 0x20000000
TBCD8 965:298.425 JLINK_ClrBPEx(BPHandle = 0x00000005)
TBCD8 965:298.455 - 0.045ms returns 0x00
TBCD8 965:298.487 JLINK_ReadReg(R0)
TBCD8 965:298.517 - 0.044ms returns 0x00000000
TBCD8 965:352.967 JLINK_HasError()
TBCD8 965:353.073 JLINK_WriteReg(R0, 0x00000001)
TBCD8 965:353.107 - 0.046ms returns 0
TBCD8 965:353.136 JLINK_WriteReg(R1, 0x00B71B00)
TBCD8 965:353.162 - 0.040ms returns 0
TBCD8 965:353.190 JLINK_WriteReg(R2, 0x00000001)
TBCD8 965:353.220 - 0.042ms returns 0
TBCD8 965:353.249 JLINK_WriteReg(R3, 0x00000000)
TBCD8 965:353.275 - 0.038ms returns 0
TBCD8 965:353.301 JLINK_WriteReg(R4, 0x00000000)
TBCD8 965:353.327 - 0.038ms returns 0
TBCD8 965:353.354 JLINK_WriteReg(R5, 0x00000000)
TBCD8 965:353.379 - 0.036ms returns 0
TBCD8 965:353.405 JLINK_WriteReg(R6, 0x00000000)
TBCD8 965:353.430 - 0.037ms returns 0
TBCD8 965:353.458 JLINK_WriteReg(R7, 0x00000000)
TBCD8 965:353.483 - 0.037ms returns 0
TBCD8 965:353.510 JLINK_WriteReg(R8, 0x00000000)
TBCD8 965:353.535 - 0.037ms returns 0
TBCD8 965:353.563 JLINK_WriteReg(R9, 0x200001B4)
TBCD8 965:353.587 - 0.036ms returns 0
TBCD8 965:353.614 JLINK_WriteReg(R10, 0x00000000)
TBCD8 965:353.638 - 0.036ms returns 0
TBCD8 965:353.665 JLINK_WriteReg(R11, 0x00000000)
TBCD8 965:353.690 - 0.036ms returns 0
TBCD8 965:353.716 JLINK_WriteReg(R12, 0x00000000)
TBCD8 965:353.740 - 0.036ms returns 0
TBCD8 965:353.767 JLINK_WriteReg(R13 (SP), 0x20000800)
TBCD8 965:353.792 - 0.037ms returns 0
TBCD8 965:353.818 JLINK_WriteReg(R14, 0x20000001)
TBCD8 965:353.842 - 0.041ms returns 0
TBCD8 965:353.878 JLINK_WriteReg(R15 (PC), 0x2000005A)
TBCD8 965:353.914 - 0.049ms returns 0
TBCD8 965:353.944 JLINK_WriteReg(XPSR, 0x01000000)
TBCD8 965:353.969 - 0.036ms returns 0
TBCD8 965:353.995 JLINK_WriteReg(MSP, 0x20000800)
TBCD8 965:354.019 - 0.036ms returns 0
TBCD8 965:354.051 JLINK_WriteReg(PSP, 0x20000800)
TBCD8 965:354.084 - 0.052ms returns 0
TBCD8 965:354.127 JLINK_WriteReg(CFBP, 0x00000000)
TBCD8 965:354.163 - 0.049ms returns 0
TBCD8 965:354.193 JLINK_SetBPEx(Addr = 0x20000000, Type = 0xFFFFFFF2)
TBCD8 965:354.225 - 0.048ms returns 0x00000006
TBCD8 965:354.261 JLINK_Go()
TBCD8 965:354.299   CPU_ReadMem(4 bytes @ 0xE0001000)
TBCD8 965:358.332 - 4.106ms
TBCD8 965:358.389 JLINK_IsHalted()
TBCD8 965:361.865   CPU_ReadMem(2 bytes @ 0x20000000)
TBCD8 965:362.513 - 4.145ms returns TRUE
TBCD8 965:362.558 JLINK_ReadReg(R15 (PC))
TBCD8 965:362.591 - 0.047ms returns 0x20000000
TBCD8 965:362.624 JLINK_ClrBPEx(BPHandle = 0x00000006)
TBCD8 965:362.653 - 0.044ms returns 0x00
TBCD8 965:362.686 JLINK_ReadReg(R0)
TBCD8 965:362.715 - 0.044ms returns 0x00000000
TBCD8 965:374.924 JLINK_WriteMem(0x20000000, 0x164 Bytes, ...)
TBCD8 965:374.963   Data:  00 BE 0A E0 0D 78 2D 06 68 40 08 24 40 00 00 D3 ...
TBCD8 965:375.014   CPU_WriteMem(356 bytes @ 0x20000000)
TBCD8 965:379.899 - 5.010ms returns 0x164
TBCD8 965:379.997 JLINK_HasError()
TBCD8 965:380.042 JLINK_WriteReg(R0, 0x08000000)
TBCD8 965:380.084 - 0.061ms returns 0
TBCD8 965:380.125 JLINK_WriteReg(R1, 0x00B71B00)
TBCD8 965:380.162 - 0.056ms returns 0
TBCD8 965:380.202 JLINK_WriteReg(R2, 0x00000002)
TBCD8 965:380.239 - 0.055ms returns 0
TBCD8 965:380.278 JLINK_WriteReg(R3, 0x00000000)
TBCD8 965:380.316 - 0.056ms returns 0
TBCD8 965:380.355 JLINK_WriteReg(R4, 0x00000000)
TBCD8 965:380.382 - 0.039ms returns 0
TBCD8 965:380.407 JLINK_WriteReg(R5, 0x00000000)
TBCD8 965:380.430 - 0.035ms returns 0
TBCD8 965:380.455 JLINK_WriteReg(R6, 0x00000000)
TBCD8 965:380.479 - 0.035ms returns 0
TBCD8 965:380.504 JLINK_WriteReg(R7, 0x00000000)
TBCD8 965:380.527 - 0.035ms returns 0
TBCD8 965:380.552 JLINK_WriteReg(R8, 0x00000000)
TBCD8 965:380.575 - 0.038ms returns 0
TBCD8 965:380.607 JLINK_WriteReg(R9, 0x20000160)
TBCD8 965:380.630 - 0.035ms returns 0
TBCD8 965:380.655 JLINK_WriteReg(R10, 0x00000000)
TBCD8 965:380.679 - 0.035ms returns 0
TBCD8 965:380.707 JLINK_WriteReg(R11, 0x00000000)
TBCD8 965:380.733 - 0.037ms returns 0
TBCD8 965:380.757 JLINK_WriteReg(R12, 0x00000000)
TBCD8 965:380.781 - 0.035ms returns 0
TBCD8 965:380.805 JLINK_WriteReg(R13 (SP), 0x20000800)
TBCD8 965:380.829 - 0.035ms returns 0
TBCD8 965:380.854 JLINK_WriteReg(R14, 0x20000001)
TBCD8 965:380.877 - 0.035ms returns 0
TBCD8 965:380.902 JLINK_WriteReg(R15 (PC), 0x20000038)
TBCD8 965:380.926 - 0.035ms returns 0
TBCD8 965:380.950 JLINK_WriteReg(XPSR, 0x01000000)
TBCD8 965:380.973 - 0.034ms returns 0
TBCD8 965:380.998 JLINK_WriteReg(MSP, 0x20000800)
TBCD8 965:381.021 - 0.035ms returns 0
TBCD8 965:381.046 JLINK_WriteReg(PSP, 0x20000800)
TBCD8 965:381.069 - 0.034ms returns 0
TBCD8 965:381.094 JLINK_WriteReg(CFBP, 0x00000000)
TBCD8 965:381.117 - 0.034ms returns 0
TBCD8 965:381.142 JLINK_SetBPEx(Addr = 0x20000000, Type = 0xFFFFFFF2)
TBCD8 965:381.170   CPU_ReadMem(2 bytes @ 0x20000000)
TBCD8 965:381.794 - 0.675ms returns 0x00000007
TBCD8 965:381.837 JLINK_Go()
TBCD8 965:381.870   CPU_WriteMem(2 bytes @ 0x20000000)
TBCD8 965:382.535   CPU_ReadMem(4 bytes @ 0xE0001000)
TBCD8 965:386.528 - 4.715ms
TBCD8 965:386.572 JLINK_IsHalted()
TBCD8 965:390.015   CPU_ReadMem(2 bytes @ 0x20000000)
TBCD8 965:390.664 - 4.118ms returns TRUE
TBCD8 965:390.719 JLINK_ReadReg(R15 (PC))
TBCD8 965:390.763 - 0.060ms returns 0x20000000
TBCD8 965:390.800 JLINK_ClrBPEx(BPHandle = 0x00000007)
TBCD8 965:390.830 - 0.044ms returns 0x00
TBCD8 965:390.863 JLINK_ReadReg(R0)
TBCD8 965:390.892 - 0.043ms returns 0x00000000
TBCD8 965:392.656 JLINK_WriteMem(0x20000164, 0x29C Bytes, ...)
TBCD8 965:392.696   Data:  E0 0C 00 20 71 1C 00 08 2D 0A 00 08 2F 0A 00 08 ...
TBCD8 965:392.763   CPU_WriteMem(668 bytes @ 0x20000164)
TBCD8 965:401.096 - 8.479ms returns 0x29C
TBCD8 965:401.160 JLINK_WriteMem(0x20000400, 0x164 Bytes, ...)
TBCD8 965:401.192   Data:  2A 1B 21 46 68 46 03 F0 1F F8 1C E0 2A 1B 21 46 ...
TBCD8 965:401.251   CPU_WriteMem(356 bytes @ 0x20000400)
TBCD8 965:406.140 - 5.012ms returns 0x164
TBCD8 965:406.196 JLINK_HasError()
TBCD8 965:406.230 JLINK_WriteReg(R0, 0x08000000)
TBCD8 965:406.265 - 0.049ms returns 0
TBCD8 965:406.296 JLINK_WriteReg(R1, 0x00000400)
TBCD8 965:406.326 - 0.044ms returns 0
TBCD8 965:406.357 JLINK_WriteReg(R2, 0x20000164)
TBCD8 965:406.386 - 0.043ms returns 0
TBCD8 965:406.417 JLINK_WriteReg(R3, 0x00000000)
TBCD8 965:406.446 - 0.043ms returns 0
TBCD8 965:406.476 JLINK_WriteReg(R4, 0x00000000)
TBCD8 965:406.505 - 0.043ms returns 0
TBCD8 965:406.536 JLINK_WriteReg(R5, 0x00000000)
TBCD8 965:406.565 - 0.043ms returns 0
TBCD8 965:406.595 JLINK_WriteReg(R6, 0x00000000)
TBCD8 965:406.624 - 0.043ms returns 0
TBCD8 965:406.654 JLINK_WriteReg(R7, 0x00000000)
TBCD8 965:406.684 - 0.043ms returns 0
TBCD8 965:406.714 JLINK_WriteReg(R8, 0x00000000)
TBCD8 965:406.743 - 0.043ms returns 0
TBCD8 965:406.773 JLINK_WriteReg(R9, 0x20000160)
TBCD8 965:406.802 - 0.043ms returns 0
TBCD8 965:406.832 JLINK_WriteReg(R10, 0x00000000)
TBCD8 965:406.861 - 0.043ms returns 0
TBCD8 965:406.892 JLINK_WriteReg(R11, 0x00000000)
TBCD8 965:406.921 - 0.043ms returns 0
TBCD8 965:406.951 JLINK_WriteReg(R12, 0x00000000)
TBCD8 965:406.980 - 0.043ms returns 0
TBCD8 965:407.010 JLINK_WriteReg(R13 (SP), 0x20000800)
TBCD8 965:407.040 - 0.044ms returns 0
TBCD8 965:407.071 JLINK_WriteReg(R14, 0x20000001)
TBCD8 965:407.100 - 0.043ms returns 0
TBCD8 965:407.132 JLINK_WriteReg(R15 (PC), 0x200000F4)
TBCD8 965:407.161 - 0.043ms returns 0
TBCD8 965:407.192 JLINK_WriteReg(XPSR, 0x01000000)
TBCD8 965:407.221 - 0.043ms returns 0
TBCD8 965:407.251 JLINK_WriteReg(MSP, 0x20000800)
TBCD8 965:407.280 - 0.043ms returns 0
TBCD8 965:407.310 JLINK_WriteReg(PSP, 0x20000800)
TBCD8 965:407.337 - 0.038ms returns 0
TBCD8 965:407.362 JLINK_WriteReg(CFBP, 0x00000000)
TBCD8 965:407.385 - 0.034ms returns 0
TBCD8 965:407.410 JLINK_SetBPEx(Addr = 0x20000000, Type = 0xFFFFFFF2)
TBCD8 965:407.435 - 0.036ms returns 0x00000008
TBCD8 965:407.460 JLINK_Go()
TBCD8 965:407.491   CPU_ReadMem(4 bytes @ 0xE0001000)
TBCD8 965:411.557 - 4.145ms
TBCD8 965:411.626 JLINK_IsHalted()
TBCD8 965:412.339 - 0.753ms returns FALSE
TBCD8 965:412.402 JLINK_HasError()
TBCD8 965:420.128 JLINK_IsHalted()
TBCD8 965:420.791 - 0.688ms returns FALSE
TBCD8 965:420.837 JLINK_HasError()
TBCD8 965:422.130 JLINK_IsHalted()
TBCD8 965:422.752 - 0.645ms returns FALSE
TBCD8 965:422.795 JLINK_HasError()
TBCD8 965:423.968 JLINK_IsHalted()
TBCD8 965:424.585 - 0.644ms returns FALSE
TBCD8 965:424.637 JLINK_HasError()
TBCD8 965:426.127 JLINK_IsHalted()
TBCD8 965:426.749 - 0.651ms returns FALSE
TBCD8 965:426.803 JLINK_HasError()
TBCD8 965:431.133 JLINK_IsHalted()
TBCD8 965:431.752 - 0.644ms returns FALSE
TBCD8 965:431.797 JLINK_HasError()
TBCD8 965:432.938 JLINK_IsHalted()
TBCD8 965:433.573 - 0.658ms returns FALSE
TBCD8 965:433.619 JLINK_HasError()
TBCD8 965:435.401 JLINK_IsHalted()
TBCD8 965:436.030 - 0.658ms returns FALSE
TBCD8 965:436.085 JLINK_HasError()
TBCD8 965:437.400 JLINK_IsHalted()
TBCD8 965:438.032 - 0.655ms returns FALSE
TBCD8 965:438.075 JLINK_HasError()
TBCD8 965:439.404 JLINK_IsHalted()
TBCD8 965:440.059 - 0.672ms returns FALSE
TBCD8 965:440.092 JLINK_HasError()
TBCD8 965:441.451 JLINK_IsHalted()
TBCD8 965:442.130 - 0.707ms returns FALSE
TBCD8 965:442.186 JLINK_HasError()
TBCD8 965:443.402 JLINK_IsHalted()
TBCD8 965:446.898   CPU_ReadMem(2 bytes @ 0x20000000)
TBCD8 965:447.582 - 4.203ms returns TRUE
TBCD8 965:447.626 JLINK_ReadReg(R15 (PC))
TBCD8 965:447.659 - 0.047ms returns 0x20000000
TBCD8 965:447.691 JLINK_ClrBPEx(BPHandle = 0x00000008)
TBCD8 965:447.720 - 0.044ms returns 0x00
TBCD8 965:447.751 JLINK_ReadReg(R0)
TBCD8 965:447.780 - 0.043ms returns 0x00000000
TBCD8 965:448.911 JLINK_WriteMem(0x20000164, 0x29C Bytes, ...)
TBCD8 965:448.942   Data:  05 F0 8A FE 06 90 06 98 05 F0 A2 FE 05 46 95 48 ...
TBCD8 965:448.985   CPU_WriteMem(668 bytes @ 0x20000164)
TBCD8 965:457.546 - 8.709ms returns 0x29C
TBCD8 965:457.652 JLINK_WriteMem(0x20000400, 0x164 Bytes, ...)
TBCD8 965:457.691   Data:  73 74 61 74 65 22 3A 74 72 75 65 7D 0D 0A 00 00 ...
TBCD8 965:457.823   CPU_WriteMem(356 bytes @ 0x20000400)
TBCD8 965:462.906 - 5.296ms returns 0x164
TBCD8 965:462.970 JLINK_HasError()
TBCD8 965:462.999 JLINK_WriteReg(R0, 0x08000400)
TBCD8 965:463.028 - 0.041ms returns 0
TBCD8 965:463.054 JLINK_WriteReg(R1, 0x00000400)
TBCD8 965:463.079 - 0.036ms returns 0
TBCD8 965:463.104 JLINK_WriteReg(R2, 0x20000164)
TBCD8 965:463.128 - 0.038ms returns 0
TBCD8 965:463.155 JLINK_WriteReg(R3, 0x00000000)
TBCD8 965:463.179 - 0.036ms returns 0
TBCD8 965:463.204 JLINK_WriteReg(R4, 0x00000000)
TBCD8 965:463.228 - 0.036ms returns 0
TBCD8 965:463.253 JLINK_WriteReg(R5, 0x00000000)
TBCD8 965:463.277 - 0.035ms returns 0
TBCD8 965:463.302 JLINK_WriteReg(R6, 0x00000000)
TBCD8 965:463.326 - 0.035ms returns 0
TBCD8 965:463.351 JLINK_WriteReg(R7, 0x00000000)
TBCD8 965:463.375 - 0.035ms returns 0
TBCD8 965:463.400 JLINK_WriteReg(R8, 0x00000000)
TBCD8 965:463.426 - 0.038ms returns 0
TBCD8 965:463.456 JLINK_WriteReg(R9, 0x20000160)
TBCD8 965:463.485 - 0.044ms returns 0
TBCD8 965:463.516 JLINK_WriteReg(R10, 0x00000000)
TBCD8 965:463.546 - 0.044ms returns 0
TBCD8 965:463.577 JLINK_WriteReg(R11, 0x00000000)
TBCD8 965:463.607 - 0.044ms returns 0
TBCD8 965:463.638 JLINK_WriteReg(R12, 0x00000000)
TBCD8 965:463.668 - 0.044ms returns 0
TBCD8 965:463.699 JLINK_WriteReg(R13 (SP), 0x20000800)
TBCD8 965:463.729 - 0.045ms returns 0
TBCD8 965:463.760 JLINK_WriteReg(R14, 0x20000001)
TBCD8 965:463.790 - 0.044ms returns 0
TBCD8 965:463.821 JLINK_WriteReg(R15 (PC), 0x200000F4)
TBCD8 965:463.851 - 0.044ms returns 0
TBCD8 965:463.882 JLINK_WriteReg(XPSR, 0x01000000)
TBCD8 965:463.911 - 0.044ms returns 0
TBCD8 965:463.942 JLINK_WriteReg(MSP, 0x20000800)
TBCD8 965:463.972 - 0.044ms returns 0
TBCD8 965:464.003 JLINK_WriteReg(PSP, 0x20000800)
TBCD8 965:464.032 - 0.044ms returns 0
TBCD8 965:464.063 JLINK_WriteReg(CFBP, 0x00000000)
TBCD8 965:464.093 - 0.044ms returns 0
TBCD8 965:464.124 JLINK_SetBPEx(Addr = 0x20000000, Type = 0xFFFFFFF2)
TBCD8 965:464.223 - 0.118ms returns 0x00000009
TBCD8 965:464.260 JLINK_Go()
TBCD8 965:464.302   CPU_ReadMem(4 bytes @ 0xE0001000)
TBCD8 965:468.366 - 4.139ms
TBCD8 965:468.425 JLINK_IsHalted()
TBCD8 965:469.024 - 0.622ms returns FALSE
TBCD8 965:469.071 JLINK_HasError()
TBCD8 965:474.339 JLINK_IsHalted()
TBCD8 965:475.027 - 0.707ms returns FALSE
TBCD8 965:475.062 JLINK_HasError()
TBCD8 965:478.250 JLINK_IsHalted()
TBCD8 965:478.913 - 0.692ms returns FALSE
TBCD8 965:478.968 JLINK_HasError()
TBCD8 965:480.252 JLINK_IsHalted()
TBCD8 965:480.922 - 0.700ms returns FALSE
TBCD8 965:480.978 JLINK_HasError()
TBCD8 965:482.562 JLINK_IsHalted()
TBCD8 965:483.237 - 0.703ms returns FALSE
TBCD8 965:483.290 JLINK_HasError()
TBCD8 965:488.002 JLINK_IsHalted()
TBCD8 965:488.664 - 0.690ms returns FALSE
TBCD8 965:488.718 JLINK_HasError()
TBCD8 965:490.011 JLINK_IsHalted()
TBCD8 965:490.628 - 0.636ms returns FALSE
TBCD8 965:490.663 JLINK_HasError()
TBCD8 965:494.016 JLINK_IsHalted()
TBCD8 965:494.752 - 0.764ms returns FALSE
TBCD8 965:494.809 JLINK_HasError()
TBCD8 965:496.005 JLINK_IsHalted()
TBCD8 965:496.662 - 0.678ms returns FALSE
TBCD8 965:496.703 JLINK_HasError()
TBCD8 965:498.466 JLINK_IsHalted()
TBCD8 965:499.106 - 0.667ms returns FALSE
TBCD8 965:499.158 JLINK_HasError()
TBCD8 965:503.467 JLINK_IsHalted()
TBCD8 965:506.966   CPU_ReadMem(2 bytes @ 0x20000000)
TBCD8 965:507.643 - 4.196ms returns TRUE
TBCD8 965:507.681 JLINK_ReadReg(R15 (PC))
TBCD8 965:507.708 - 0.039ms returns 0x20000000
TBCD8 965:507.734 JLINK_ClrBPEx(BPHandle = 0x00000009)
TBCD8 965:507.758 - 0.036ms returns 0x00
TBCD8 965:507.784 JLINK_ReadReg(R0)
TBCD8 965:507.808 - 0.035ms returns 0x00000000
TBCD8 965:508.739 JLINK_WriteMem(0x20000164, 0x29C Bytes, ...)
TBCD8 965:508.771   Data:  68 22 2C 31 0D 0A 00 00 02 00 00 20 02 F0 A7 FA ...
TBCD8 965:508.814   CPU_WriteMem(668 bytes @ 0x20000164)
TBCD8 965:517.281 - 8.576ms returns 0x29C
TBCD8 965:517.338 JLINK_WriteMem(0x20000400, 0x164 Bytes, ...)
TBCD8 965:517.369   Data:  08 46 00 68 20 F0 03 00 08 60 08 46 00 68 40 F0 ...
TBCD8 965:517.422   CPU_WriteMem(356 bytes @ 0x20000400)
TBCD8 965:522.336 - 5.052ms returns 0x164
TBCD8 965:522.424 JLINK_HasError()
TBCD8 965:522.462 JLINK_WriteReg(R0, 0x08000800)
TBCD8 965:522.502 - 0.055ms returns 0
TBCD8 965:522.536 JLINK_WriteReg(R1, 0x00000400)
TBCD8 965:522.563 - 0.039ms returns 0
TBCD8 965:522.590 JLINK_WriteReg(R2, 0x20000164)
TBCD8 965:522.615 - 0.039ms returns 0
TBCD8 965:522.644 JLINK_WriteReg(R3, 0x00000000)
TBCD8 965:522.677 - 0.045ms returns 0
TBCD8 965:522.706 JLINK_WriteReg(R4, 0x00000000)
TBCD8 965:522.732 - 0.037ms returns 0
TBCD8 965:522.759 JLINK_WriteReg(R5, 0x00000000)
TBCD8 965:522.784 - 0.037ms returns 0
TBCD8 965:522.812 JLINK_WriteReg(R6, 0x00000000)
TBCD8 965:522.836 - 0.036ms returns 0
TBCD8 965:522.865 JLINK_WriteReg(R7, 0x00000000)
TBCD8 965:522.890 - 0.038ms returns 0
TBCD8 965:522.924 JLINK_WriteReg(R8, 0x00000000)
TBCD8 965:522.955 - 0.045ms returns 0
TBCD8 965:522.987 JLINK_WriteReg(R9, 0x20000160)
TBCD8 965:523.022 - 0.050ms returns 0
TBCD8 965:523.058 JLINK_WriteReg(R10, 0x00000000)
TBCD8 965:523.093 - 0.051ms returns 0
TBCD8 965:523.131 JLINK_WriteReg(R11, 0x00000000)
TBCD8 965:523.163 - 0.046ms returns 0
TBCD8 965:523.199 JLINK_WriteReg(R12, 0x00000000)
TBCD8 965:523.230 - 0.046ms returns 0
TBCD8 965:523.265 JLINK_WriteReg(R13 (SP), 0x20000800)
TBCD8 965:523.300 - 0.052ms returns 0
TBCD8 965:523.338 JLINK_WriteReg(R14, 0x20000001)
TBCD8 965:523.372 - 0.052ms returns 0
TBCD8 965:523.412 JLINK_WriteReg(R15 (PC), 0x200000F4)
TBCD8 965:523.458 - 0.063ms returns 0
TBCD8 965:523.501 JLINK_WriteReg(XPSR, 0x01000000)
TBCD8 965:523.554 - 0.071ms returns 0
TBCD8 965:523.601 JLINK_WriteReg(MSP, 0x20000800)
TBCD8 965:523.649 - 0.064ms returns 0
TBCD8 965:523.690 JLINK_WriteReg(PSP, 0x20000800)
TBCD8 965:523.726 - 0.049ms returns 0
TBCD8 965:523.758 JLINK_WriteReg(CFBP, 0x00000000)
TBCD8 965:523.792 - 0.047ms returns 0
TBCD8 965:523.826 JLINK_SetBPEx(Addr = 0x20000000, Type = 0xFFFFFFF2)
TBCD8 965:523.941 - 0.138ms returns 0x0000000A
TBCD8 965:523.983 JLINK_Go()
TBCD8 965:524.028   CPU_ReadMem(4 bytes @ 0xE0001000)
TBCD8 965:528.567 - 4.623ms
TBCD8 965:528.632 JLINK_IsHalted()
TBCD8 965:529.209 - 0.598ms returns FALSE
TBCD8 965:529.253 JLINK_HasError()
TBCD8 965:537.249 JLINK_IsHalted()
TBCD8 965:537.911 - 0.682ms returns FALSE
TBCD8 965:537.949 JLINK_HasError()
TBCD8 965:539.342 JLINK_IsHalted()
TBCD8 965:540.029 - 0.706ms returns FALSE
TBCD8 965:540.065 JLINK_HasError()
TBCD8 965:543.347 JLINK_IsHalted()
TBCD8 965:544.020 - 0.695ms returns FALSE
TBCD8 965:544.061 JLINK_HasError()
TBCD8 965:545.354 JLINK_IsHalted()
TBCD8 965:546.023 - 0.696ms returns FALSE
TBCD8 965:546.076 JLINK_HasError()
TBCD8 965:547.468 JLINK_IsHalted()
TBCD8 965:548.093 - 0.653ms returns FALSE
TBCD8 965:548.145 JLINK_HasError()
TBCD8 965:551.988 JLINK_IsHalted()
TBCD8 965:552.624 - 0.666ms returns FALSE
TBCD8 965:552.679 JLINK_HasError()
TBCD8 965:553.987 JLINK_IsHalted()
TBCD8 965:554.576 - 0.617ms returns FALSE
TBCD8 965:554.632 JLINK_HasError()
TBCD8 965:557.986 JLINK_IsHalted()
TBCD8 965:558.579 - 0.621ms returns FALSE
TBCD8 965:558.632 JLINK_HasError()
TBCD8 965:559.987 JLINK_IsHalted()
TBCD8 965:563.435   CPU_ReadMem(2 bytes @ 0x20000000)
TBCD8 965:564.082 - 4.123ms returns TRUE
TBCD8 965:564.135 JLINK_ReadReg(R15 (PC))
TBCD8 965:564.177 - 0.060ms returns 0x20000000
TBCD8 965:564.217 JLINK_ClrBPEx(BPHandle = 0x0000000A)
TBCD8 965:564.258 - 0.059ms returns 0x00
TBCD8 965:564.298 JLINK_ReadReg(R0)
TBCD8 965:564.336 - 0.056ms returns 0x00000000
TBCD8 965:564.951 JLINK_WriteMem(0x20000164, 0x29C Bytes, ...)
TBCD8 965:564.983   Data:  00 10 02 40 00 20 02 40 00 00 FF F8 FF FF F6 FE ...
TBCD8 965:565.025   CPU_WriteMem(668 bytes @ 0x20000164)
TBCD8 965:573.362 - 8.455ms returns 0x29C
TBCD8 965:573.430 JLINK_WriteMem(0x20000400, 0x164 Bytes, ...)
TBCD8 965:573.460   Data:  40 F2 25 51 13 48 01 F0 B3 FC 01 28 0B D1 11 48 ...
TBCD8 965:573.515   CPU_WriteMem(356 bytes @ 0x20000400)
TBCD8 965:578.403 - 5.006ms returns 0x164
TBCD8 965:578.456 JLINK_HasError()
TBCD8 965:578.484 JLINK_WriteReg(R0, 0x08000C00)
TBCD8 965:578.512 - 0.040ms returns 0
TBCD8 965:578.538 JLINK_WriteReg(R1, 0x00000400)
TBCD8 965:578.562 - 0.035ms returns 0
TBCD8 965:578.586 JLINK_WriteReg(R2, 0x20000164)
TBCD8 965:578.610 - 0.035ms returns 0
TBCD8 965:578.635 JLINK_WriteReg(R3, 0x00000000)
TBCD8 965:578.661 - 0.041ms returns 0
TBCD8 965:578.692 JLINK_WriteReg(R4, 0x00000000)
TBCD8 965:578.722 - 0.044ms returns 0
TBCD8 965:578.753 JLINK_WriteReg(R5, 0x00000000)
TBCD8 965:578.782 - 0.043ms returns 0
TBCD8 965:578.813 JLINK_WriteReg(R6, 0x00000000)
TBCD8 965:578.843 - 0.044ms returns 0
TBCD8 965:578.874 JLINK_WriteReg(R7, 0x00000000)
TBCD8 965:578.904 - 0.043ms returns 0
TBCD8 965:578.934 JLINK_WriteReg(R8, 0x00000000)
TBCD8 965:578.964 - 0.043ms returns 0
TBCD8 965:578.996 JLINK_WriteReg(R9, 0x20000160)
TBCD8 965:579.025 - 0.043ms returns 0
TBCD8 965:579.056 JLINK_WriteReg(R10, 0x00000000)
TBCD8 965:579.085 - 0.043ms returns 0
TBCD8 965:579.115 JLINK_WriteReg(R11, 0x00000000)
TBCD8 965:579.144 - 0.043ms returns 0
TBCD8 965:579.175 JLINK_WriteReg(R12, 0x00000000)
TBCD8 965:579.204 - 0.043ms returns 0
TBCD8 965:579.234 JLINK_WriteReg(R13 (SP), 0x20000800)
TBCD8 965:579.264 - 0.044ms returns 0
TBCD8 965:579.295 JLINK_WriteReg(R14, 0x20000001)
TBCD8 965:579.324 - 0.043ms returns 0
TBCD8 965:579.354 JLINK_WriteReg(R15 (PC), 0x200000F4)
TBCD8 965:579.384 - 0.044ms returns 0
TBCD8 965:579.415 JLINK_WriteReg(XPSR, 0x01000000)
TBCD8 965:579.444 - 0.044ms returns 0
TBCD8 965:579.475 JLINK_WriteReg(MSP, 0x20000800)
TBCD8 965:579.504 - 0.043ms returns 0
TBCD8 965:579.534 JLINK_WriteReg(PSP, 0x20000800)
TBCD8 965:579.563 - 0.043ms returns 0
TBCD8 965:579.594 JLINK_WriteReg(CFBP, 0x00000000)
TBCD8 965:579.623 - 0.043ms returns 0
TBCD8 965:579.654 JLINK_SetBPEx(Addr = 0x20000000, Type = 0xFFFFFFF2)
TBCD8 965:579.681 - 0.038ms returns 0x0000000B
TBCD8 965:579.706 JLINK_Go()
TBCD8 965:579.820   CPU_ReadMem(4 bytes @ 0xE0001000)
TBCD8 965:583.882 - 4.251ms
TBCD8 965:583.994 JLINK_IsHalted()
TBCD8 965:584.625 - 0.660ms returns FALSE
TBCD8 965:584.684 JLINK_HasError()
TBCD8 965:595.544 JLINK_IsHalted()
TBCD8 965:596.165 - 0.639ms returns FALSE
TBCD8 965:596.200 JLINK_HasError()
TBCD8 965:599.544 JLINK_IsHalted()
TBCD8 965:600.167 - 0.641ms returns FALSE
TBCD8 965:600.202 JLINK_HasError()
TBCD8 965:601.547 JLINK_IsHalted()
TBCD8 965:602.194 - 0.677ms returns FALSE
TBCD8 965:602.249 JLINK_HasError()
TBCD8 965:607.045 JLINK_IsHalted()
TBCD8 965:607.748 - 0.733ms returns FALSE
TBCD8 965:607.804 JLINK_HasError()
TBCD8 965:609.034 JLINK_IsHalted()
TBCD8 965:609.653 - 0.647ms returns FALSE
TBCD8 965:609.706 JLINK_HasError()
TBCD8 965:611.034 JLINK_IsHalted()
TBCD8 965:611.673 - 0.666ms returns FALSE
TBCD8 965:611.725 JLINK_HasError()
TBCD8 965:619.311 JLINK_IsHalted()
TBCD8 965:622.854   CPU_ReadMem(2 bytes @ 0x20000000)
TBCD8 965:623.521 - 4.232ms returns TRUE
TBCD8 965:623.564 JLINK_ReadReg(R15 (PC))
TBCD8 965:623.596 - 0.046ms returns 0x20000000
TBCD8 965:623.627 JLINK_ClrBPEx(BPHandle = 0x0000000B)
TBCD8 965:623.657 - 0.043ms returns 0x00
TBCD8 965:623.687 JLINK_ReadReg(R0)
TBCD8 965:623.716 - 0.043ms returns 0x00000000
TBCD8 965:624.604 JLINK_WriteMem(0x20000164, 0x29C Bytes, ...)
TBCD8 965:624.635   Data:  AE FE 4F F4 80 51 1D 48 00 F0 CF FF 64 20 01 F0 ...
TBCD8 965:624.676   CPU_WriteMem(668 bytes @ 0x20000164)
TBCD8 965:633.148 - 8.579ms returns 0x29C
TBCD8 965:633.207 JLINK_WriteMem(0x20000400, 0x164 Bytes, ...)
TBCD8 965:633.238   Data:  00 21 10 20 FF F7 93 FF FF F7 75 FF 78 20 FF F7 ...
TBCD8 965:633.292   CPU_WriteMem(356 bytes @ 0x20000400)
TBCD8 965:638.151 - 4.981ms returns 0x164
TBCD8 965:638.216 JLINK_HasError()
TBCD8 965:638.251 JLINK_WriteReg(R0, 0x08001000)
TBCD8 965:638.286 - 0.049ms returns 0
TBCD8 965:638.319 JLINK_WriteReg(R1, 0x00000400)
TBCD8 965:638.348 - 0.044ms returns 0
TBCD8 965:638.380 JLINK_WriteReg(R2, 0x20000164)
TBCD8 965:638.409 - 0.043ms returns 0
TBCD8 965:638.441 JLINK_WriteReg(R3, 0x00000000)
TBCD8 965:638.470 - 0.043ms returns 0
TBCD8 965:638.502 JLINK_WriteReg(R4, 0x00000000)
TBCD8 965:638.531 - 0.043ms returns 0
TBCD8 965:638.563 JLINK_WriteReg(R5, 0x00000000)
TBCD8 965:638.592 - 0.043ms returns 0
TBCD8 965:638.624 JLINK_WriteReg(R6, 0x00000000)
TBCD8 965:638.653 - 0.043ms returns 0
TBCD8 965:638.685 JLINK_WriteReg(R7, 0x00000000)
TBCD8 965:638.714 - 0.043ms returns 0
TBCD8 965:638.745 JLINK_WriteReg(R8, 0x00000000)
TBCD8 965:638.775 - 0.041ms returns 0
TBCD8 965:638.801 JLINK_WriteReg(R9, 0x20000160)
TBCD8 965:638.825 - 0.035ms returns 0
TBCD8 965:638.851 JLINK_WriteReg(R10, 0x00000000)
TBCD8 965:638.875 - 0.035ms returns 0
TBCD8 965:638.901 JLINK_WriteReg(R11, 0x00000000)
TBCD8 965:638.924 - 0.035ms returns 0
TBCD8 965:638.950 JLINK_WriteReg(R12, 0x00000000)
TBCD8 965:638.974 - 0.035ms returns 0
TBCD8 965:639.000 JLINK_WriteReg(R13 (SP), 0x20000800)
TBCD8 965:639.024 - 0.036ms returns 0
TBCD8 965:639.050 JLINK_WriteReg(R14, 0x20000001)
TBCD8 965:639.074 - 0.037ms returns 0
TBCD8 965:639.102 JLINK_WriteReg(R15 (PC), 0x200000F4)
TBCD8 965:639.126 - 0.036ms returns 0
TBCD8 965:639.153 JLINK_WriteReg(XPSR, 0x01000000)
TBCD8 965:639.177 - 0.035ms returns 0
TBCD8 965:639.203 JLINK_WriteReg(MSP, 0x20000800)
TBCD8 965:639.226 - 0.035ms returns 0
TBCD8 965:639.252 JLINK_WriteReg(PSP, 0x20000800)
TBCD8 965:639.276 - 0.035ms returns 0
TBCD8 965:639.302 JLINK_WriteReg(CFBP, 0x00000000)
TBCD8 965:639.326 - 0.035ms returns 0
TBCD8 965:639.352 JLINK_SetBPEx(Addr = 0x20000000, Type = 0xFFFFFFF2)
TBCD8 965:639.377 - 0.037ms returns 0x0000000C
TBCD8 965:639.403 JLINK_Go()
TBCD8 965:639.436   CPU_ReadMem(4 bytes @ 0xE0001000)
TBCD8 965:643.445 - 4.080ms
TBCD8 965:643.507 JLINK_IsHalted()
TBCD8 965:644.113 - 0.634ms returns FALSE
TBCD8 965:644.167 JLINK_HasError()
TBCD8 965:653.789 JLINK_IsHalted()
TBCD8 965:654.428 - 0.662ms returns FALSE
TBCD8 965:654.472 JLINK_HasError()
TBCD8 965:655.784 JLINK_IsHalted()
TBCD8 965:656.381 - 0.615ms returns FALSE
TBCD8 965:656.415 JLINK_HasError()
TBCD8 965:657.790 JLINK_IsHalted()
TBCD8 965:658.406 - 0.636ms returns FALSE
TBCD8 965:658.443 JLINK_HasError()
TBCD8 965:662.788 JLINK_IsHalted()
TBCD8 965:663.429 - 0.671ms returns FALSE
TBCD8 965:663.485 JLINK_HasError()
TBCD8 965:664.791 JLINK_IsHalted()
TBCD8 965:665.437 - 0.667ms returns FALSE
TBCD8 965:665.477 JLINK_HasError()
TBCD8 965:666.789 JLINK_IsHalted()
TBCD8 965:667.397 - 0.626ms returns FALSE
TBCD8 965:667.430 JLINK_HasError()
TBCD8 965:670.631 JLINK_IsHalted()
TBCD8 965:671.269 - 0.661ms returns FALSE
TBCD8 965:671.311 JLINK_HasError()
TBCD8 965:672.621 JLINK_IsHalted()
TBCD8 965:673.247 - 0.655ms returns FALSE
TBCD8 965:673.301 JLINK_HasError()
TBCD8 965:674.621 JLINK_IsHalted()
TBCD8 965:678.170   CPU_ReadMem(2 bytes @ 0x20000000)
TBCD8 965:678.822 - 4.222ms returns TRUE
TBCD8 965:678.862 JLINK_ReadReg(R15 (PC))
TBCD8 965:678.889 - 0.039ms returns 0x20000000
TBCD8 965:678.915 JLINK_ClrBPEx(BPHandle = 0x0000000C)
TBCD8 965:678.939 - 0.036ms returns 0x00
TBCD8 965:678.965 JLINK_ReadReg(R0)
TBCD8 965:678.988 - 0.035ms returns 0x00000000
TBCD8 965:679.755 JLINK_WriteMem(0x20000164, 0x29C Bytes, ...)
TBCD8 965:679.787   Data:  40 1B 02 90 01 98 38 44 01 90 AB 45 04 DD AB EB ...
TBCD8 965:679.830   CPU_WriteMem(668 bytes @ 0x20000164)
TBCD8 965:688.303 - 8.579ms returns 0x29C
TBCD8 965:688.360 JLINK_WriteMem(0x20000400, 0x164 Bytes, ...)
TBCD8 965:688.399   Data:  FF F7 DF FF B9 FB F0 F0 0A 21 B0 FB F1 F2 01 FB ...
TBCD8 965:688.461   CPU_WriteMem(356 bytes @ 0x20000400)
TBCD8 965:693.353 - 5.026ms returns 0x164
TBCD8 965:693.409 JLINK_HasError()
TBCD8 965:693.437 JLINK_WriteReg(R0, 0x08001400)
TBCD8 965:693.466 - 0.040ms returns 0
TBCD8 965:693.491 JLINK_WriteReg(R1, 0x00000400)
TBCD8 965:693.515 - 0.035ms returns 0
TBCD8 965:693.540 JLINK_WriteReg(R2, 0x20000164)
